# vsim -c apb_top 
# Start time: 20:27:51 on May 20,2025
# ** Note: (vsim-3813) Design is being optimized due to module recompilation...
# ** Warning: apb_top.sv(16): (vopt-2685) [TFMPC] - Too few port connections for 'dut'.  Expected 9, found 8.
# ** Warning: apb_top.sv(16): (vopt-2718) [TFMPC] - Missing connection for port 'PSLVERR'.
# ** Warning: apb_seq.sv(23): (vopt-2240) Treating stand-alone use of function 'randomize' as an implicit VOID cast.
# //  Questa Sim
# //  Version 10.6c linux Jul 25 2017
# //
# //  Copyright 1991-2017 Mentor Graphics Corporation
# //  All Rights Reserved.
# //
# //  QuestaSim and its associated documentation contain trade
# //  secrets and commercial or financial information that are the property of
# //  Mentor Graphics Corporation and are privileged, confidential,
# //  and exempt from disclosure under the Freedom of Information Act,
# //  5 U.S.C. Section 552. Furthermore, this information
# //  is prohibited from disclosure under the Trade Secrets Act,
# //  18 U.S.C. Section 1905.
# //
# Loading sv_std.std
# Loading mtiUvm.uvm_pkg
# Loading work.apb_top_sv_unit(fast)
# Loading work.apb_top(fast)
# Loading mtiUvm.questa_uvm_pkg(fast)
# Loading work.apb_intf(fast)
# Loading /tools/mentor/questasim_10.6c/questasim/uvm-1.1d/linux/uvm_dpi.so
# ----------------------------------------------------------------
# UVM-1.1d
# (C) 2007-2013 Mentor Graphics Corporation
# (C) 2007-2013 Cadence Design Systems, Inc.
# (C) 2006-2013 Synopsys, Inc.
# (C) 2011-2013 Cypress Semiconductor Corp.
# ----------------------------------------------------------------
# 
#   ***********       IMPORTANT RELEASE NOTES         ************
# 
#   You are using a version of the UVM library that has been compiled
#   with `UVM_NO_DEPRECATED undefined.
#   See http://www.eda.org/svdb/view.php?id=3313 for more details.
# 
#   You are using a version of the UVM library that has been compiled
#   with `UVM_OBJECT_MUST_HAVE_CONSTRUCTOR undefined.
#   See http://www.eda.org/svdb/view.php?id=3770 for more details.
# 
#       (Specify +UVM_NO_RELNOTES to turn off this notice)
# 
# UVM_INFO verilog_src/questa_uvm_pkg-1.2/src/questa_uvm_pkg.sv(215) @ 0: reporter [Questa UVM] QUESTA_UVM-1.2.3
# UVM_INFO verilog_src/questa_uvm_pkg-1.2/src/questa_uvm_pkg.sv(217) @ 0: reporter [Questa UVM]  questa_uvm::init(+struct)
# UVM_INFO @ 0: reporter [RNTST] Running test apb_write_slave2_test...
# UVM_INFO @ 0: reporter [UVMTOP] UVM testbench topology:
# --------------------------------------------------------------
# Name                       Type                    Size  Value
# --------------------------------------------------------------
# uvm_test_top               apb_write_slave2_test   -     @471 
#   env_h                    apb_env                 -     @478 
#     active_h               apb_active_agent        -     @489 
#       drv_h                apb_driver              -     @620 
#         rsp_port           uvm_analysis_port       -     @635 
#         seq_item_port      uvm_seq_item_pull_port  -     @627 
#       in_mon_h             apb_ip_mon              -     @643 
#         ip_mon_port        uvm_analysis_port       -     @656 
#       seqr_h               apb_seqr                -     @511 
#         rsp_export         uvm_analysis_export     -     @518 
#         seq_item_export    uvm_seq_item_pull_imp   -     @612 
#         arbitration_queue  array                   0     -    
#         lock_queue         array                   0     -    
#         num_last_reqs      integral                32    'd1  
#         num_last_rsps      integral                32    'd1  
#     passive_h              apb_passive_agent       -     @496 
#       out_mon_h            apb_op_mon              -     @670 
#         op_mon_port        uvm_analysis_port       -     @677 
#     sb_h                   apb_sb                  -     @503 
#       ip_scb_imp           uvm_analysis_imp_ip     -     @690 
#       op_scb_imp           uvm_analysis_imp_op     -     @698 
# --------------------------------------------------------------
# 
# UVM_INFO apb_sb.sv(52) @ 5: uvm_test_top.env_h.sb_h [Scoreboard] EXPECTED TRANSACTION: Queue size = 1 | READ_WRITE = 0 | transfer = 0 | apb_write_paddr = 0 | apb_write_data = 0 | apb_read_paddr = 0 | apb_read_data_out = xx 
# ---------------------------------------------------------------------------------------
# UVM_INFO apb_ip_mon.sv(52) @ 5: uvm_test_top.env_h.active_h.in_mon_h [INPUT MONITOR] ----------------------------------Input monitor sending data------------------
# ----------------------------------------------
# Name                 Type          Size  Value
# ----------------------------------------------
# packet               apb_seq_item  -     @722 
#   transfer           integral      1     'h0  
#   READ_WRITE         integral      1     'h0  
#   apb_write_paddr    integral      9     'h0  
#   apb_write_data     integral      8     'h0  
#   apb_read_paddr     integral      9     'h0  
#   apb_read_data_out  integral      8     'h0xx
# ----------------------------------------------
# UVM_INFO apb_ip_mon.sv(54) @ 5: uvm_test_top.env_h.active_h.in_mon_h [INPUT MONITOR] ------------------------------------------------------------------------------
# UVM_INFO apb_sb.sv(59) @ 5: uvm_test_top.env_h.sb_h [Scoreboard] ACTUAL TRANSACTION: Queue size = 1 | READ_WRITE = 0 | transfer = 0 | apb_write_paddr = 0 | apb_write_data = 0 | apb_read_paddr = 0 | apb_read_data_out = xx 
# ---------------------------------------------------------------------------------------
# UVM_INFO apb_op_mon.sv(50) @ 5: uvm_test_top.env_h.passive_h.out_mon_h [OUTPUT_MONITOR] ---------------------Output monitor sending data-----------------------------------
# ----------------------------------------------
# Name                 Type          Size  Value
# ----------------------------------------------
# packet               apb_seq_item  -     @685 
#   transfer           integral      1     'h0  
#   READ_WRITE         integral      1     'h0  
#   apb_write_paddr    integral      9     'h0  
#   apb_write_data     integral      8     'h0  
#   apb_read_paddr     integral      9     'h0  
#   apb_read_data_out  integral      8     'h0xx
# ----------------------------------------------
# UVM_INFO apb_op_mon.sv(52) @ 5: uvm_test_top.env_h.passive_h.out_mon_h [OUTPUT_MONITOR] -----------------------------------------------------------------------------------
# @@@@@@@@@@@@@@@@@@@@@@@@@ For comparing exp trans =   x | act trans =   x
# UVM_INFO apb_sb.sv(97) @ 5: uvm_test_top.env_h.sb_h [compare] -------------Test PASS------------
#  Expected apb_write_data = 0 |  Actual apb_write_data = 0 |  Expected apb_write_paddr =0 |  Actual apb_write_apddr = 0 
# UVM_INFO apb_sb.sv(59) @ 15: uvm_test_top.env_h.sb_h [Scoreboard] ACTUAL TRANSACTION: Queue size = 1 | READ_WRITE = 0 | transfer = 0 | apb_write_paddr = 0 | apb_write_data = 0 | apb_read_paddr = 0 | apb_read_data_out = xx 
# ---------------------------------------------------------------------------------------
# UVM_INFO apb_op_mon.sv(50) @ 15: uvm_test_top.env_h.passive_h.out_mon_h [OUTPUT_MONITOR] ---------------------Output monitor sending data-----------------------------------
# ----------------------------------------------
# Name                 Type          Size  Value
# ----------------------------------------------
# packet               apb_seq_item  -     @685 
#   transfer           integral      1     'h0  
#   READ_WRITE         integral      1     'h0  
#   apb_write_paddr    integral      9     'h0  
#   apb_write_data     integral      8     'h0  
#   apb_read_paddr     integral      9     'h0  
#   apb_read_data_out  integral      8     'h0xx
# ----------------------------------------------
# UVM_INFO apb_op_mon.sv(52) @ 15: uvm_test_top.env_h.passive_h.out_mon_h [OUTPUT_MONITOR] -----------------------------------------------------------------------------------
# UVM_INFO apb_sb.sv(52) @ 15: uvm_test_top.env_h.sb_h [Scoreboard] EXPECTED TRANSACTION: Queue size = 1 | READ_WRITE = 0 | transfer = 0 | apb_write_paddr = 0 | apb_write_data = 0 | apb_read_paddr = 0 | apb_read_data_out = xx 
# ---------------------------------------------------------------------------------------
# UVM_INFO apb_ip_mon.sv(52) @ 15: uvm_test_top.env_h.active_h.in_mon_h [INPUT MONITOR] ----------------------------------Input monitor sending data------------------
# ----------------------------------------------
# Name                 Type          Size  Value
# ----------------------------------------------
# packet               apb_seq_item  -     @722 
#   transfer           integral      1     'h0  
#   READ_WRITE         integral      1     'h0  
#   apb_write_paddr    integral      9     'h0  
#   apb_write_data     integral      8     'h0  
#   apb_read_paddr     integral      9     'h0  
#   apb_read_data_out  integral      8     'h0xx
# ----------------------------------------------
# UVM_INFO apb_ip_mon.sv(54) @ 15: uvm_test_top.env_h.active_h.in_mon_h [INPUT MONITOR] ------------------------------------------------------------------------------
# @@@@@@@@@@@@@@@@@@@@@@@@@ For comparing exp trans =   x | act trans =   x
# UVM_INFO apb_sb.sv(97) @ 15: uvm_test_top.env_h.sb_h [compare] -------------Test PASS------------
#  Expected apb_write_data = 0 |  Actual apb_write_data = 0 |  Expected apb_write_paddr =0 |  Actual apb_write_apddr = 0 
# UVM_WARNING apb_seq.sv(76) @ 15: uvm_test_top.env_h.active_h.seqr_h@@write_slave2_h [RNDFLD] Randomization failed in uvm_do_with action
# ** Warning: (vsim-PLI-3070) apb_driver.sv(76): $sformatf : Too many arguments.
#    Time: 25 ns  Iteration: 3  Region: /uvm_pkg::uvm_task_phase::execute
# UVM_INFO apb_driver.sv(76) @ 25: uvm_test_top.env_h.active_h.drv_h [DRIVER] [25] Transfer = x | read_write = x | apb_write_paddr = x | apb_write_data = x | apb_read_paddr = x 
# UVM_INFO apb_driver.sv(79) @ 25: uvm_test_top.env_h.active_h.drv_h [DRIVER] ------------------------DRIVER DRIVING DATA-----------------------------------------
# ----------------------------------------------------------------------------------------------------
# Name                           Type          Size  Value                                            
# ----------------------------------------------------------------------------------------------------
# item                           apb_seq_item  -     @730                                             
#   transfer                     integral      1     'h0                                              
#   READ_WRITE                   integral      1     'h0                                              
#   apb_write_paddr              integral      9     'h0                                              
#   apb_write_data               integral      8     'h0                                              
#   apb_read_paddr               integral      9     'h0                                              
#   apb_read_data_out            integral      8     'h0xx                                            
#   begin_time                   time          64    15                                               
#   depth                        int           32    'd2                                              
#   parent sequence (name)       string        14    write_slave2_h                                   
#   parent sequence (full name)  string        49    uvm_test_top.env_h.active_h.seqr_h.write_slave2_h
#   sequencer                    string        34    uvm_test_top.env_h.active_h.seqr_h               
# ----------------------------------------------------------------------------------------------------
# UVM_INFO apb_driver.sv(81) @ 25: uvm_test_top.env_h.active_h.drv_h [DRIVER] ------------------------------------------------------------------------------------
# UVM_INFO apb_sb.sv(52) @ 25: uvm_test_top.env_h.sb_h [Scoreboard] EXPECTED TRANSACTION: Queue size = 1 | READ_WRITE = 0 | transfer = 0 | apb_write_paddr = 0 | apb_write_data = 0 | apb_read_paddr = 0 | apb_read_data_out = xx 
# ---------------------------------------------------------------------------------------
# UVM_INFO apb_ip_mon.sv(52) @ 25: uvm_test_top.env_h.active_h.in_mon_h [INPUT MONITOR] ----------------------------------Input monitor sending data------------------
# ----------------------------------------------
# Name                 Type          Size  Value
# ----------------------------------------------
# packet               apb_seq_item  -     @722 
#   transfer           integral      1     'h0  
#   READ_WRITE         integral      1     'h0  
#   apb_write_paddr    integral      9     'h0  
#   apb_write_data     integral      8     'h0  
#   apb_read_paddr     integral      9     'h0  
#   apb_read_data_out  integral      8     'h0xx
# ----------------------------------------------
# UVM_INFO apb_ip_mon.sv(54) @ 25: uvm_test_top.env_h.active_h.in_mon_h [INPUT MONITOR] ------------------------------------------------------------------------------
# UVM_INFO apb_sb.sv(59) @ 25: uvm_test_top.env_h.sb_h [Scoreboard] ACTUAL TRANSACTION: Queue size = 1 | READ_WRITE = 0 | transfer = 0 | apb_write_paddr = 0 | apb_write_data = 0 | apb_read_paddr = 0 | apb_read_data_out = xx 
# ---------------------------------------------------------------------------------------
# UVM_INFO apb_op_mon.sv(50) @ 25: uvm_test_top.env_h.passive_h.out_mon_h [OUTPUT_MONITOR] ---------------------Output monitor sending data-----------------------------------
# ----------------------------------------------
# Name                 Type          Size  Value
# ----------------------------------------------
# packet               apb_seq_item  -     @685 
#   transfer           integral      1     'h0  
#   READ_WRITE         integral      1     'h0  
#   apb_write_paddr    integral      9     'h0  
#   apb_write_data     integral      8     'h0  
#   apb_read_paddr     integral      9     'h0  
#   apb_read_data_out  integral      8     'h0xx
# ----------------------------------------------
# UVM_INFO apb_op_mon.sv(52) @ 25: uvm_test_top.env_h.passive_h.out_mon_h [OUTPUT_MONITOR] -----------------------------------------------------------------------------------
# @@@@@@@@@@@@@@@@@@@@@@@@@ For comparing exp trans =   x | act trans =   x
# UVM_INFO apb_sb.sv(97) @ 25: uvm_test_top.env_h.sb_h [compare] -------------Test PASS------------
#  Expected apb_write_data = 0 |  Actual apb_write_data = 0 |  Expected apb_write_paddr =0 |  Actual apb_write_apddr = 0 
# ** Warning: (vsim-PLI-3070) apb_driver.sv(76): $sformatf : Too many arguments.
#    Time: 35 ns  Iteration: 2  Region: /uvm_pkg::uvm_task_phase::execute
# UVM_INFO apb_driver.sv(76) @ 35: uvm_test_top.env_h.active_h.drv_h [DRIVER] [35] Transfer = 0 | read_write = 0 | apb_write_paddr = x | apb_write_data = x | apb_read_paddr = x 
# UVM_INFO apb_driver.sv(79) @ 35: uvm_test_top.env_h.active_h.drv_h [DRIVER] ------------------------DRIVER DRIVING DATA-----------------------------------------
# ----------------------------------------------------------------------------------------------------
# Name                           Type          Size  Value                                            
# ----------------------------------------------------------------------------------------------------
# item                           apb_seq_item  -     @730                                             
#   transfer                     integral      1     'h0                                              
#   READ_WRITE                   integral      1     'h0                                              
#   apb_write_paddr              integral      9     'h0                                              
#   apb_write_data               integral      8     'h0                                              
#   apb_read_paddr               integral      9     'h0                                              
#   apb_read_data_out            integral      8     'h0xx                                            
#   begin_time                   time          64    25                                               
#   end_time                     time          64    25                                               
#   depth                        int           32    'd2                                              
#   parent sequence (name)       string        14    write_slave2_h                                   
#   parent sequence (full name)  string        49    uvm_test_top.env_h.active_h.seqr_h.write_slave2_h
#   sequencer                    string        34    uvm_test_top.env_h.active_h.seqr_h               
# ----------------------------------------------------------------------------------------------------
# UVM_INFO apb_driver.sv(81) @ 35: uvm_test_top.env_h.active_h.drv_h [DRIVER] ------------------------------------------------------------------------------------
# UVM_INFO apb_sb.sv(59) @ 35: uvm_test_top.env_h.sb_h [Scoreboard] ACTUAL TRANSACTION: Queue size = 1 | READ_WRITE = 0 | transfer = 0 | apb_write_paddr = 0 | apb_write_data = 0 | apb_read_paddr = 0 | apb_read_data_out = xx 
# ---------------------------------------------------------------------------------------
# UVM_INFO apb_op_mon.sv(50) @ 35: uvm_test_top.env_h.passive_h.out_mon_h [OUTPUT_MONITOR] ---------------------Output monitor sending data-----------------------------------
# ----------------------------------------------
# Name                 Type          Size  Value
# ----------------------------------------------
# packet               apb_seq_item  -     @685 
#   transfer           integral      1     'h0  
#   READ_WRITE         integral      1     'h0  
#   apb_write_paddr    integral      9     'h0  
#   apb_write_data     integral      8     'h0  
#   apb_read_paddr     integral      9     'h0  
#   apb_read_data_out  integral      8     'h0xx
# ----------------------------------------------
# UVM_INFO apb_op_mon.sv(52) @ 35: uvm_test_top.env_h.passive_h.out_mon_h [OUTPUT_MONITOR] -----------------------------------------------------------------------------------
# UVM_INFO apb_sb.sv(52) @ 35: uvm_test_top.env_h.sb_h [Scoreboard] EXPECTED TRANSACTION: Queue size = 1 | READ_WRITE = 0 | transfer = 0 | apb_write_paddr = 0 | apb_write_data = 0 | apb_read_paddr = 0 | apb_read_data_out = xx 
# ---------------------------------------------------------------------------------------
# UVM_INFO apb_ip_mon.sv(52) @ 35: uvm_test_top.env_h.active_h.in_mon_h [INPUT MONITOR] ----------------------------------Input monitor sending data------------------
# ----------------------------------------------
# Name                 Type          Size  Value
# ----------------------------------------------
# packet               apb_seq_item  -     @722 
#   transfer           integral      1     'h0  
#   READ_WRITE         integral      1     'h0  
#   apb_write_paddr    integral      9     'h0  
#   apb_write_data     integral      8     'h0  
#   apb_read_paddr     integral      9     'h0  
#   apb_read_data_out  integral      8     'h0xx
# ----------------------------------------------
# UVM_INFO apb_ip_mon.sv(54) @ 35: uvm_test_top.env_h.active_h.in_mon_h [INPUT MONITOR] ------------------------------------------------------------------------------
# @@@@@@@@@@@@@@@@@@@@@@@@@ For comparing exp trans =   x | act trans =   x
# UVM_INFO apb_sb.sv(97) @ 35: uvm_test_top.env_h.sb_h [compare] -------------Test PASS------------
#  Expected apb_write_data = 0 |  Actual apb_write_data = 0 |  Expected apb_write_paddr =0 |  Actual apb_write_apddr = 0 
# UVM_WARNING apb_seq.sv(76) @ 35: uvm_test_top.env_h.active_h.seqr_h@@write_slave2_h [RNDFLD] Randomization failed in uvm_do_with action
# ** Warning: (vsim-PLI-3070) apb_driver.sv(76): $sformatf : Too many arguments.
#    Time: 45 ns  Iteration: 2  Region: /uvm_pkg::uvm_task_phase::execute
# UVM_INFO apb_driver.sv(76) @ 45: uvm_test_top.env_h.active_h.drv_h [DRIVER] [45] Transfer = 0 | read_write = 0 | apb_write_paddr = x | apb_write_data = x | apb_read_paddr = x 
# UVM_INFO apb_driver.sv(79) @ 45: uvm_test_top.env_h.active_h.drv_h [DRIVER] ------------------------DRIVER DRIVING DATA-----------------------------------------
# ----------------------------------------------------------------------------------------------------
# Name                           Type          Size  Value                                            
# ----------------------------------------------------------------------------------------------------
# item                           apb_seq_item  -     @787                                             
#   transfer                     integral      1     'h0                                              
#   READ_WRITE                   integral      1     'h0                                              
#   apb_write_paddr              integral      9     'h0                                              
#   apb_write_data               integral      8     'h0                                              
#   apb_read_paddr               integral      9     'h0                                              
#   apb_read_data_out            integral      8     'h0xx                                            
#   begin_time                   time          64    35                                               
#   depth                        int           32    'd2                                              
#   parent sequence (name)       string        14    write_slave2_h                                   
#   parent sequence (full name)  string        49    uvm_test_top.env_h.active_h.seqr_h.write_slave2_h
#   sequencer                    string        34    uvm_test_top.env_h.active_h.seqr_h               
# ----------------------------------------------------------------------------------------------------
# UVM_INFO apb_driver.sv(81) @ 45: uvm_test_top.env_h.active_h.drv_h [DRIVER] ------------------------------------------------------------------------------------
# UVM_INFO apb_sb.sv(52) @ 45: uvm_test_top.env_h.sb_h [Scoreboard] EXPECTED TRANSACTION: Queue size = 1 | READ_WRITE = 0 | transfer = 0 | apb_write_paddr = 0 | apb_write_data = 0 | apb_read_paddr = 0 | apb_read_data_out = xx 
# ---------------------------------------------------------------------------------------
# UVM_INFO apb_ip_mon.sv(52) @ 45: uvm_test_top.env_h.active_h.in_mon_h [INPUT MONITOR] ----------------------------------Input monitor sending data------------------
# ----------------------------------------------
# Name                 Type          Size  Value
# ----------------------------------------------
# packet               apb_seq_item  -     @722 
#   transfer           integral      1     'h0  
#   READ_WRITE         integral      1     'h0  
#   apb_write_paddr    integral      9     'h0  
#   apb_write_data     integral      8     'h0  
#   apb_read_paddr     integral      9     'h0  
#   apb_read_data_out  integral      8     'h0xx
# ----------------------------------------------
# UVM_INFO apb_ip_mon.sv(54) @ 45: uvm_test_top.env_h.active_h.in_mon_h [INPUT MONITOR] ------------------------------------------------------------------------------
# UVM_INFO apb_sb.sv(59) @ 45: uvm_test_top.env_h.sb_h [Scoreboard] ACTUAL TRANSACTION: Queue size = 1 | READ_WRITE = 0 | transfer = 0 | apb_write_paddr = 0 | apb_write_data = 0 | apb_read_paddr = 0 | apb_read_data_out = xx 
# ---------------------------------------------------------------------------------------
# UVM_INFO apb_op_mon.sv(50) @ 45: uvm_test_top.env_h.passive_h.out_mon_h [OUTPUT_MONITOR] ---------------------Output monitor sending data-----------------------------------
# ----------------------------------------------
# Name                 Type          Size  Value
# ----------------------------------------------
# packet               apb_seq_item  -     @685 
#   transfer           integral      1     'h0  
#   READ_WRITE         integral      1     'h0  
#   apb_write_paddr    integral      9     'h0  
#   apb_write_data     integral      8     'h0  
#   apb_read_paddr     integral      9     'h0  
#   apb_read_data_out  integral      8     'h0xx
# ----------------------------------------------
# UVM_INFO apb_op_mon.sv(52) @ 45: uvm_test_top.env_h.passive_h.out_mon_h [OUTPUT_MONITOR] -----------------------------------------------------------------------------------
# @@@@@@@@@@@@@@@@@@@@@@@@@ For comparing exp trans =   x | act trans =   x
# UVM_INFO apb_sb.sv(97) @ 45: uvm_test_top.env_h.sb_h [compare] -------------Test PASS------------
#  Expected apb_write_data = 0 |  Actual apb_write_data = 0 |  Expected apb_write_paddr =0 |  Actual apb_write_apddr = 0 
# ** Warning: (vsim-PLI-3070) apb_driver.sv(76): $sformatf : Too many arguments.
#    Time: 55 ns  Iteration: 2  Region: /uvm_pkg::uvm_task_phase::execute
# UVM_INFO apb_driver.sv(76) @ 55: uvm_test_top.env_h.active_h.drv_h [DRIVER] [55] Transfer = 0 | read_write = 0 | apb_write_paddr = x | apb_write_data = x | apb_read_paddr = x 
# UVM_INFO apb_driver.sv(79) @ 55: uvm_test_top.env_h.active_h.drv_h [DRIVER] ------------------------DRIVER DRIVING DATA-----------------------------------------
# ----------------------------------------------------------------------------------------------------
# Name                           Type          Size  Value                                            
# ----------------------------------------------------------------------------------------------------
# item                           apb_seq_item  -     @787                                             
#   transfer                     integral      1     'h0                                              
#   READ_WRITE                   integral      1     'h0                                              
#   apb_write_paddr              integral      9     'h0                                              
#   apb_write_data               integral      8     'h0                                              
#   apb_read_paddr               integral      9     'h0                                              
#   apb_read_data_out            integral      8     'h0xx                                            
#   begin_time                   time          64    45                                               
#   end_time                     time          64    45                                               
#   depth                        int           32    'd2                                              
#   parent sequence (name)       string        14    write_slave2_h                                   
#   parent sequence (full name)  string        49    uvm_test_top.env_h.active_h.seqr_h.write_slave2_h
#   sequencer                    string        34    uvm_test_top.env_h.active_h.seqr_h               
# ----------------------------------------------------------------------------------------------------
# UVM_INFO apb_driver.sv(81) @ 55: uvm_test_top.env_h.active_h.drv_h [DRIVER] ------------------------------------------------------------------------------------
# UVM_INFO apb_sb.sv(59) @ 55: uvm_test_top.env_h.sb_h [Scoreboard] ACTUAL TRANSACTION: Queue size = 1 | READ_WRITE = 0 | transfer = 0 | apb_write_paddr = 0 | apb_write_data = 0 | apb_read_paddr = 0 | apb_read_data_out = xx 
# ---------------------------------------------------------------------------------------
# UVM_INFO apb_op_mon.sv(50) @ 55: uvm_test_top.env_h.passive_h.out_mon_h [OUTPUT_MONITOR] ---------------------Output monitor sending data-----------------------------------
# ----------------------------------------------
# Name                 Type          Size  Value
# ----------------------------------------------
# packet               apb_seq_item  -     @685 
#   transfer           integral      1     'h0  
#   READ_WRITE         integral      1     'h0  
#   apb_write_paddr    integral      9     'h0  
#   apb_write_data     integral      8     'h0  
#   apb_read_paddr     integral      9     'h0  
#   apb_read_data_out  integral      8     'h0xx
# ----------------------------------------------
# UVM_INFO apb_op_mon.sv(52) @ 55: uvm_test_top.env_h.passive_h.out_mon_h [OUTPUT_MONITOR] -----------------------------------------------------------------------------------
# UVM_INFO apb_sb.sv(52) @ 55: uvm_test_top.env_h.sb_h [Scoreboard] EXPECTED TRANSACTION: Queue size = 1 | READ_WRITE = 0 | transfer = 0 | apb_write_paddr = 0 | apb_write_data = 0 | apb_read_paddr = 0 | apb_read_data_out = xx 
# ---------------------------------------------------------------------------------------
# UVM_INFO apb_ip_mon.sv(52) @ 55: uvm_test_top.env_h.active_h.in_mon_h [INPUT MONITOR] ----------------------------------Input monitor sending data------------------
# ----------------------------------------------
# Name                 Type          Size  Value
# ----------------------------------------------
# packet               apb_seq_item  -     @722 
#   transfer           integral      1     'h0  
#   READ_WRITE         integral      1     'h0  
#   apb_write_paddr    integral      9     'h0  
#   apb_write_data     integral      8     'h0  
#   apb_read_paddr     integral      9     'h0  
#   apb_read_data_out  integral      8     'h0xx
# ----------------------------------------------
# UVM_INFO apb_ip_mon.sv(54) @ 55: uvm_test_top.env_h.active_h.in_mon_h [INPUT MONITOR] ------------------------------------------------------------------------------
# @@@@@@@@@@@@@@@@@@@@@@@@@ For comparing exp trans =   x | act trans =   x
# UVM_INFO apb_sb.sv(97) @ 55: uvm_test_top.env_h.sb_h [compare] -------------Test PASS------------
#  Expected apb_write_data = 0 |  Actual apb_write_data = 0 |  Expected apb_write_paddr =0 |  Actual apb_write_apddr = 0 
# UVM_INFO apb_sb.sv(52) @ 65: uvm_test_top.env_h.sb_h [Scoreboard] EXPECTED TRANSACTION: Queue size = 1 | READ_WRITE = 0 | transfer = 0 | apb_write_paddr = 0 | apb_write_data = 0 | apb_read_paddr = 0 | apb_read_data_out = xx 
# ---------------------------------------------------------------------------------------
# UVM_INFO apb_ip_mon.sv(52) @ 65: uvm_test_top.env_h.active_h.in_mon_h [INPUT MONITOR] ----------------------------------Input monitor sending data------------------
# ----------------------------------------------
# Name                 Type          Size  Value
# ----------------------------------------------
# packet               apb_seq_item  -     @722 
#   transfer           integral      1     'h0  
#   READ_WRITE         integral      1     'h0  
#   apb_write_paddr    integral      9     'h0  
#   apb_write_data     integral      8     'h0  
#   apb_read_paddr     integral      9     'h0  
#   apb_read_data_out  integral      8     'h0xx
# ----------------------------------------------
# UVM_INFO apb_ip_mon.sv(54) @ 65: uvm_test_top.env_h.active_h.in_mon_h [INPUT MONITOR] ------------------------------------------------------------------------------
# UVM_INFO apb_sb.sv(59) @ 65: uvm_test_top.env_h.sb_h [Scoreboard] ACTUAL TRANSACTION: Queue size = 1 | READ_WRITE = 0 | transfer = 0 | apb_write_paddr = 0 | apb_write_data = 0 | apb_read_paddr = 0 | apb_read_data_out = xx 
# ---------------------------------------------------------------------------------------
# UVM_INFO apb_op_mon.sv(50) @ 65: uvm_test_top.env_h.passive_h.out_mon_h [OUTPUT_MONITOR] ---------------------Output monitor sending data-----------------------------------
# ----------------------------------------------
# Name                 Type          Size  Value
# ----------------------------------------------
# packet               apb_seq_item  -     @685 
#   transfer           integral      1     'h0  
#   READ_WRITE         integral      1     'h0  
#   apb_write_paddr    integral      9     'h0  
#   apb_write_data     integral      8     'h0  
#   apb_read_paddr     integral      9     'h0  
#   apb_read_data_out  integral      8     'h0xx
# ----------------------------------------------
# UVM_INFO apb_op_mon.sv(52) @ 65: uvm_test_top.env_h.passive_h.out_mon_h [OUTPUT_MONITOR] -----------------------------------------------------------------------------------
# @@@@@@@@@@@@@@@@@@@@@@@@@ For comparing exp trans =   x | act trans =   x
# UVM_INFO apb_sb.sv(97) @ 65: uvm_test_top.env_h.sb_h [compare] -------------Test PASS------------
#  Expected apb_write_data = 0 |  Actual apb_write_data = 0 |  Expected apb_write_paddr =0 |  Actual apb_write_apddr = 0 
# UVM_INFO apb_sb.sv(59) @ 75: uvm_test_top.env_h.sb_h [Scoreboard] ACTUAL TRANSACTION: Queue size = 1 | READ_WRITE = 0 | transfer = 0 | apb_write_paddr = 0 | apb_write_data = 0 | apb_read_paddr = 0 | apb_read_data_out = xx 
# ---------------------------------------------------------------------------------------
# UVM_INFO apb_op_mon.sv(50) @ 75: uvm_test_top.env_h.passive_h.out_mon_h [OUTPUT_MONITOR] ---------------------Output monitor sending data-----------------------------------
# ----------------------------------------------
# Name                 Type          Size  Value
# ----------------------------------------------
# packet               apb_seq_item  -     @685 
#   transfer           integral      1     'h0  
#   READ_WRITE         integral      1     'h0  
#   apb_write_paddr    integral      9     'h0  
#   apb_write_data     integral      8     'h0  
#   apb_read_paddr     integral      9     'h0  
#   apb_read_data_out  integral      8     'h0xx
# ----------------------------------------------
# UVM_INFO apb_op_mon.sv(52) @ 75: uvm_test_top.env_h.passive_h.out_mon_h [OUTPUT_MONITOR] -----------------------------------------------------------------------------------
# UVM_INFO apb_sb.sv(52) @ 75: uvm_test_top.env_h.sb_h [Scoreboard] EXPECTED TRANSACTION: Queue size = 1 | READ_WRITE = 0 | transfer = 0 | apb_write_paddr = 0 | apb_write_data = 0 | apb_read_paddr = 0 | apb_read_data_out = xx 
# ---------------------------------------------------------------------------------------
# UVM_INFO apb_ip_mon.sv(52) @ 75: uvm_test_top.env_h.active_h.in_mon_h [INPUT MONITOR] ----------------------------------Input monitor sending data------------------
# ----------------------------------------------
# Name                 Type          Size  Value
# ----------------------------------------------
# packet               apb_seq_item  -     @722 
#   transfer           integral      1     'h0  
#   READ_WRITE         integral      1     'h0  
#   apb_write_paddr    integral      9     'h0  
#   apb_write_data     integral      8     'h0  
#   apb_read_paddr     integral      9     'h0  
#   apb_read_data_out  integral      8     'h0xx
# ----------------------------------------------
# UVM_INFO apb_ip_mon.sv(54) @ 75: uvm_test_top.env_h.active_h.in_mon_h [INPUT MONITOR] ------------------------------------------------------------------------------
# @@@@@@@@@@@@@@@@@@@@@@@@@ For comparing exp trans =   x | act trans =   x
# UVM_INFO apb_sb.sv(97) @ 75: uvm_test_top.env_h.sb_h [compare] -------------Test PASS------------
#  Expected apb_write_data = 0 |  Actual apb_write_data = 0 |  Expected apb_write_paddr =0 |  Actual apb_write_apddr = 0 
# UVM_INFO verilog_src/uvm-1.1d/src/base/uvm_objection.svh(1268) @ 85: reporter [TEST_DONE] 'run' phase is ready to proceed to the 'extract' phase
# UVM_INFO apb_sb.sv(133) @ 85: uvm_test_top.env_h.sb_h [apb_sb] ---------------------------------------
# UVM_INFO apb_sb.sv(134) @ 85: uvm_test_top.env_h.sb_h [apb_sb]       TEST PASS COUNT:  8     
# UVM_INFO apb_sb.sv(135) @ 85: uvm_test_top.env_h.sb_h [apb_sb] ---------------------------------------
# 
# --- UVM Report Summary ---
# 
# ** Report counts by severity
# UVM_INFO :   76
# UVM_WARNING :    2
# UVM_ERROR :    0
# UVM_FATAL :    0
# ** Report counts by id
# [DRIVER]    12
# [INPUT MONITOR]    16
# [OUTPUT_MONITOR]    16
# [Questa UVM]     2
# [RNDFLD]     2
# [RNTST]     1
# [Scoreboard]    16
# [TEST_DONE]     1
# [UVMTOP]     1
# [apb_sb]     3
# [compare]     8
# ** Note: $finish    : /tools/mentor/questasim_10.6c/questasim/linux/../verilog_src/uvm-1.1d/src/base/uvm_root.svh(430)
#    Time: 85 ns  Iteration: 53  Instance: /apb_top
# End time: 20:27:58 on May 20,2025, Elapsed time: 0:00:07
# Errors: 0, Warnings: 7
